T55B0 1647:558 SEGGER J-Link V6.32i Log File (0001ms, 15108ms total)
T55B0 1647:558 DLL Compiled: Jul 24 2018 15:19:55 (0001ms, 15108ms total)
T55B0 1647:558 Logging started @ 2024-06-11 08:22 (0001ms, 15108ms total)
T55B0 1647:559 JLINK_SetWarnOutHandler(...) (0000ms, 15108ms total)
T55B0 1647:559 JLINK_OpenEx(...)
Firmware: J-Link V9 compiled Apr 20 2018 16:47:26
Hardware: V9.60
S/N: 69663727
Feature(s): RDI, GDB, FlashDL, FlashBP, JFlash
TELNET listener socket opened on port 19021Device "STM32F405RG" selected.WEBSRV 
Starting webserver (0015ms, 15123ms total)
T55B0 1647:559 WEBSRV Webserver running on local port 19080 (0015ms, 15123ms total)
T55B0 1647:559   returns O.K. (0015ms, 15123ms total)
T55B0 1647:574 JLINK_GetEmuCaps()  returns 0xB9FF7BBF (0000ms, 15123ms total)
T55B0 1647:574 JLINK_TIF_GetAvailable(...) (0001ms, 15124ms total)
T55B0 1647:575 JLINK_SetErrorOutHandler(...) (0000ms, 15124ms total)
T55B0 1647:575 JLINK_ExecCommand("ProjectFile = "E:\git\Hardware\cooller\code\MDK-ARM\JLinkSettings.ini"", ...). Device "STM32F405RG" selected.  returns 0x00 (0001ms, 15125ms total)
T55B0 1647:576 JLINK_ExecCommand("Device = STM32F405RGTx", ...). Device "STM32F405RG" selected.  returns 0x00 (0001ms, 15126ms total)
T55B0 1647:577 JLINK_ExecCommand("DisableConnectionTimeout", ...).   returns 0x01 (0000ms, 15126ms total)
T55B0 1647:577 JLINK_GetHardwareVersion()  returns 0x17700 (0000ms, 15126ms total)
T55B0 1647:577 JLINK_GetDLLVersion()  returns 63209 (0000ms, 15126ms total)
T55B0 1647:577 JLINK_GetFirmwareString(...) (0000ms, 15126ms total)
T55B0 1647:577 JLINK_GetDLLVersion()  returns 63209 (0000ms, 15126ms total)
T55B0 1647:577 JLINK_GetCompileDateTime() (0000ms, 15126ms total)
T55B0 1647:577 JLINK_GetFirmwareString(...) (0000ms, 15126ms total)
T55B0 1647:577 JLINK_GetHardwareVersion()  returns 0x17700 (0000ms, 15126ms total)
T55B0 1647:577 JLINK_TIF_Select(JLINKARM_TIF_SWD)  returns 0x00 (0001ms, 15127ms total)
T55B0 1647:578 JLINK_SetSpeed(5000) (0000ms, 15127ms total)
T55B0 1647:578 JLINK_GetId() >0x10B TIF>Found SW-DP with ID 0x2BA01477 >0x0D TIF> >0x28 TIF> >0x0D TIF> >0x28 TIF> >0x0D TIF> >0x28 TIF> >0x0D TIF> >0x28 TIF> >0x0D TIF> >0x21 TIF> >0x0D TIF> >0x28 TIF> >0x0D TIF> >0x28 TIF> >0x0D TIF> >0x28 TIF> >0x0D TIF> >0x21 TIF> >0x0D TIF> >0x21 TIF> >0x0D TIF> >0x28 TIF> >0x0D TIF> >0x21 TIF> >0x0D TIF> >0x21 TIF> >0x0D TIF> >0x28 TIF> >0x0D TIF> >0x21 TIF> >0x0D TIF> >0x21 TIF> >0x0D TIF> >0x28 TIF> >0x0D TIF> >0x21 TIF> >0x0D TIF> >0x21 TIF> >0x0D TIF>
 >0x28 TIF> >0x0D TIF> >0x21 TIF> >0x0D TIF> >0x21 TIF> >0x0D TIF> >0x28 TIF> >0x0D TIF> >0x21 TIF> >0x0D TIF> >0x21 TIF> >0x10B TIF>Found SW-DP with ID 0x2BA01477 >0x0D TIF> >0x28 TIF> >0x0D TIF> >0x28 TIF> >0x0D TIF> >0x28 TIF> >0x0D TIF> >0x28 TIF> >0x0D TIF> >0x21 TIF> >0x0D TIF> >0x28 TIF>Scanning AP map to find all available APs >0x0D TIF> >0x28 TIF> >0x0D TIF> >0x21 TIF> >0x0D TIF> >0x21 TIF> >0x0D TIF> >0x28 TIF> >0x0D TIF> >0x21 TIF> >0x0D TIF> >0x21 TIF>
AP[1]: Stopped AP scan as end of AP map has been reachedAP[0]: AHB-AP (IDR: 0x24770011)Iterating through AP map to find AHB-AP to use >0x42 TIF> >0x28 TIF> >0x0D TIF> >0x28 TIF> >0x0D TIF> >0x21 TIF> >0x0D TIF> >0x21 TIF> >0x42 TIF> >0x28 TIF> >0x0D TIF> >0x28 TIF> >0x0D TIF> >0x28 TIF> >0x0D TIF> >0x21 TIF> >0x0D TIF> >0x21 TIF>AP[0]: Core foundAP[0]: AHB-AP ROM base: 0xE00FF000 >0x0D TIF> >0x28 TIF> >0x0D TIF> >0x28 TIF> >0x0D TIF> >0x28 TIF> >0x0D TIF> >0x21 TIF> >0x0D TIF> >0x21 TIF>
CPUID register: 0x410FC241. Implementer code: 0x41 (ARM)Found Cortex-M4 r0p1, Little endian. -- Max. mem block: 0x00010F28 -- CPU_ReadMem(4 bytes @ 0xE000EDF0) -- CPU_WriteMem(4 bytes @ 0xE000EDF0) -- CPU_ReadMem(4 bytes @ 0xE0002000)FPUnit: 6 code (BP) slots and 2 literal slots -- CPU_ReadMem(4 bytes @ 0xE000EDFC) -- CPU_WriteMem(4 bytes @ 0xE000EDFC) -- CPU_ReadMem(4 bytes @ 0xE0001000) -- CPU_WriteMem(4 bytes @ 0xE0001000) -- CPU_ReadMem(4 bytes @ 0xE000ED88) -- CPU_WriteMem(4 bytes @ 0xE000ED88)
 -- CPU_ReadMem(4 bytes @ 0xE000ED88) -- CPU_WriteMem(4 bytes @ 0xE000ED88)CoreSight components:ROMTbl[0] @ E00FF000 -- CPU_ReadMem(16 bytes @ 0xE00FF000) -- CPU_ReadMem(16 bytes @ 0xE000EFF0) -- CPU_ReadMem(16 bytes @ 0xE000EFE0)ROMTbl[0][0]: E000E000, CID: B105E00D, PID: 000BB00C SCS-M7 -- CPU_ReadMem(16 bytes @ 0xE0001FF0) -- CPU_ReadMem(16 bytes @ 0xE0001FE0)ROMTbl[0][1]: E0001000, CID: B105E00D, PID: 003BB002 DWT -- CPU_ReadMem(16 bytes @ 0xE0002FF0) -- CPU_ReadMem(16 bytes @ 0xE0002FE0)
ROMTbl[0][2]: E0002000, CID: B105E00D, PID: 002BB003 FPB -- CPU_ReadMem(16 bytes @ 0xE0000FF0) -- CPU_ReadMem(16 bytes @ 0xE0000FE0)ROMTbl[0][3]: E0000000, CID: B105E00D, PID: 003BB001 ITM -- CPU_ReadMem(16 bytes @ 0xE00FF010) -- CPU_ReadMem(16 bytes @ 0xE0040FF0) -- CPU_ReadMem(16 bytes @ 0xE0040FE0)ROMTbl[0][4]: E0040000, CID: B105900D, PID: 000BB9A1 TPIU -- CPU_ReadMem(16 bytes @ 0xE0041FF0) -- CPU_ReadMem(16 bytes @ 0xE0041FE0)ROMTbl[0][5]: E0041000, CID: B105900D, PID: 000BB925 ETM >0x0D TIF>
 >0x21 TIF>  returns 0x2BA01477 (0133ms, 15260ms total)
T55B0 1647:711 JLINK_GetDLLVersion()  returns 63209 (0000ms, 15260ms total)
T55B0 1647:711 JLINK_CORE_GetFound()  returns 0xE0000FF (0000ms, 15260ms total)
T55B0 1647:711 JLINK_GetDebugInfo(0x100 = JLINKARM_ROM_TABLE_ADDR_INDEX) -- Value=0xE00FF000  returns 0x00 (0000ms, 15260ms total)
T55B0 1647:711 JLINK_GetDebugInfo(0x100 = JLINKARM_ROM_TABLE_ADDR_INDEX) -- Value=0xE00FF000  returns 0x00 (0000ms, 15260ms total)
T55B0 1647:711 JLINK_GetDebugInfo(0x101 = JLINKARM_DEBUG_INFO_ETM_ADDR_INDEX) -- Value=0xE0041000  returns 0x00 (0000ms, 15260ms total)
T55B0 1647:711 JLINK_ReadMemEx(0xE0041FD0, 0x0020 Bytes, ..., Flags = 0x02000004) -- CPU_ReadMem(32 bytes @ 0xE0041FD0) - Data: 04 00 00 00 00 00 00 00 00 00 00 00 00 00 00 00 ...  returns 0x20 (0000ms, 15260ms total)
T55B0 1647:711 JLINK_GetDebugInfo(0x102 = JLINKARM_DEBUG_INFO_MTB_ADDR_INDEX) -- Value=0x00000000  returns 0x00 (0000ms, 15260ms total)
T55B0 1647:711 JLINK_GetDebugInfo(0x103 = JLINKARM_DEBUG_INFO_TPIU_ADDR_INDEX) -- Value=0xE0040000  returns 0x00 (0000ms, 15260ms total)
T55B0 1647:711 JLINK_GetDebugInfo(0x104 = JLINKARM_DEBUG_INFO_ITM_ADDR_INDEX) -- Value=0xE0000000  returns 0x00 (0000ms, 15260ms total)
T55B0 1647:711 JLINK_GetDebugInfo(0x105 = JLINKARM_DEBUG_INFO_DWT_ADDR_INDEX) -- Value=0xE0001000  returns 0x00 (0000ms, 15260ms total)
T55B0 1647:711 JLINK_GetDebugInfo(0x106 = JLINKARM_DEBUG_INFO_FPB_ADDR_INDEX) -- Value=0xE0002000  returns 0x00 (0000ms, 15260ms total)
T55B0 1647:711 JLINK_GetDebugInfo(0x107 = JLINKARM_DEBUG_INFO_NVIC_ADDR_INDEX) -- Value=0xE000E000  returns 0x00 (0000ms, 15260ms total)
T55B0 1647:711 JLINK_GetDebugInfo(0x10C = JLINKARM_DEBUG_INFO_DBG_ADDR_INDEX) -- Value=0xE000EDF0  returns 0x00 (0000ms, 15260ms total)
T55B0 1647:711 JLINK_GetDebugInfo(0x01 = Unknown) -- Value=0x00000001  returns 0x00 (0000ms, 15260ms total)
T55B0 1647:711 JLINK_ReadMemU32(0xE000ED00, 0x0001 Items, ...) -- CPU_ReadMem(4 bytes @ 0xE000ED00) - Data: 41 C2 0F 41  returns 0x01 (0001ms, 15261ms total)
T55B0 1647:712 JLINK_GetDebugInfo(0x10F = JLINKARM_DEBUG_INFO_HAS_CORTEX_M_SECURITY_EXT_INDEX) -- Value=0x00000000  returns 0x00 (0000ms, 15261ms total)
T55B0 1647:712 JLINK_SetResetType(JLINKARM_CM3_RESET_TYPE_NORMAL)  returns JLINKARM_CM3_RESET_TYPE_NORMAL (0000ms, 15261ms total)
T55B0 1647:712 JLINK_Reset() -- CPU is running -- CPU_WriteMem(4 bytes @ 0xE000EDF0) -- CPU is running -- CPU_WriteMem(4 bytes @ 0xE000EDFC)Reset: Halt core after reset via DEMCR.VC_CORERESET. >0x35 TIF>Reset: Reset device via AIRCR.SYSRESETREQ. -- CPU is running -- CPU_WriteMem(4 bytes @ 0xE000ED0C) >0x0D TIF> >0x28 TIF> -- CPU_ReadMem(4 bytes @ 0xE000EDF0) -- CPU_ReadMem(4 bytes @ 0xE000EDF0) -- CPU is running -- CPU_WriteMem(4 bytes @ 0xE000EDF0) -- CPU is running -- CPU_WriteMem(4 bytes @ 0xE000EDFC)
 -- CPU_ReadMem(4 bytes @ 0xE000EDF0) -- CPU_WriteMem(4 bytes @ 0xE0002000) -- CPU_ReadMem(4 bytes @ 0xE000EDFC) -- CPU_ReadMem(4 bytes @ 0xE0001000) (0063ms, 15324ms total)
T55B0 1647:775 JLINK_ReadReg(R15 (PC))  returns 0x080002AC (0000ms, 15324ms total)
T55B0 1647:775 JLINK_ReadReg(XPSR)  returns 0x01000000 (0000ms, 15324ms total)
T55B0 1647:775 JLINK_Halt()  returns 0x00 (0000ms, 15324ms total)
T55B0 1647:775 JLINK_ReadMemU32(0xE000EDF0, 0x0001 Items, ...) -- CPU_ReadMem(4 bytes @ 0xE000EDF0) - Data: 03 00 03 00  returns 0x01 (0000ms, 15324ms total)
T55B0 1647:775 JLINK_WriteU32(0xE000EDF0, 0xA05F0003) -- CPU_WriteMem(4 bytes @ 0xE000EDF0)  returns 0x00 (0000ms, 15324ms total)
T55B0 1647:775 JLINK_WriteU32(0xE000EDFC, 0x01000000) -- CPU_WriteMem(4 bytes @ 0xE000EDFC)  returns 0x00 (0001ms, 15325ms total)
T55B0 1647:776 JLINK_GetHWStatus(...)  returns 0x00 (0000ms, 15325ms total)
T55B0 1647:776 JLINK_GetNumBPUnits(Type = 0xFFFFFF00)  returns 0x06 (0000ms, 15325ms total)
T55B0 1647:776 JLINK_GetNumBPUnits(Type = 0xF0)  returns 0x2000 (0000ms, 15325ms total)
T55B0 1647:776 JLINK_GetNumWPUnits()  returns 0x04 (0000ms, 15325ms total)
T55B0 1647:776 JLINK_GetSpeed()  returns 0xFA0 (0000ms, 15325ms total)
T55B0 1647:776 JLINK_ReadMemU32(0xE000E004, 0x0001 Items, ...) -- CPU_ReadMem(4 bytes @ 0xE000E004) - Data: 02 00 00 00  returns 0x01 (0000ms, 15325ms total)
T55B0 1647:776 JLINK_ReadMemU32(0xE000E004, 0x0001 Items, ...) -- CPU_ReadMem(4 bytes @ 0xE000E004) - Data: 02 00 00 00  returns 0x01 (0000ms, 15325ms total)
T55B0 1647:776 JLINK_WriteMemEx(0xE0001000, 0x001C Bytes, ..., Flags = 0x02000004) - Data: 01 00 00 00 00 00 00 00 00 00 00 00 00 00 00 00 ... -- CPU_WriteMem(28 bytes @ 0xE0001000)  returns 0x1C (0001ms, 15326ms total)
T55B0 1647:777 JLINK_ReadReg(R15 (PC))  returns 0x080002AC (0000ms, 15326ms total)
T55B0 1647:777 JLINK_ReadReg(XPSR)  returns 0x01000000 (0000ms, 15326ms total)
T55B0 1647:778 JLINK_ReadMemEx(0xE0001004, 0x0004 Bytes, ..., Flags = 0x02000000) - Data: 00 00 00 00  returns 0x04 (0000ms, 15326ms total)
T55B0 1647:877 JLINK_SetResetType(JLINKARM_CM3_RESET_TYPE_NORMAL)  returns JLINKARM_CM3_RESET_TYPE_NORMAL (0000ms, 15326ms total)
T55B0 1647:877 JLINK_Reset() -- CPU_WriteMem(4 bytes @ 0xE000EDF0) -- CPU_WriteMem(4 bytes @ 0xE000EDFC)Reset: Halt core after reset via DEMCR.VC_CORERESET. >0x35 TIF>Reset: Reset device via AIRCR.SYSRESETREQ. -- CPU_WriteMem(4 bytes @ 0xE000ED0C) >0x0D TIF> >0x28 TIF> -- CPU_ReadMem(4 bytes @ 0xE000EDF0) -- CPU_ReadMem(4 bytes @ 0xE000EDF0) -- CPU_WriteMem(4 bytes @ 0xE000EDF0) -- CPU_WriteMem(4 bytes @ 0xE000EDFC) -- CPU_ReadMem(4 bytes @ 0xE000EDF0) -- CPU_WriteMem(4 bytes @ 0xE0002000)
 -- CPU_ReadMem(4 bytes @ 0xE000EDFC) -- CPU_ReadMem(4 bytes @ 0xE0001000) (0063ms, 15389ms total)
T55B0 1647:940 JLINK_ReadReg(R15 (PC))  returns 0x080002AC (0000ms, 15389ms total)
T55B0 1647:940 JLINK_ReadReg(XPSR)  returns 0x01000000 (0000ms, 15389ms total)
T55B0 1647:940 JLINK_ReadMemEx(0x080001AC, 0x003C Bytes, ..., Flags = 0x02000000) -- CPU_ReadMem(128 bytes @ 0x08000180) -- Updating C cache (128 bytes @ 0x08000180) -- Read from C cache (60 bytes @ 0x080001AC) - Data: 0F 00 13 F0 01 0F 18 BF FB 1A 43 F0 01 03 18 47 ...  returns 0x3C (0001ms, 15390ms total)
T55B0 1647:941 JLINK_ReadMemEx(0x080001E8, 0x003C Bytes, ..., Flags = 0x02000000) -- CPU_ReadMem(64 bytes @ 0x08000200) -- Updating C cache (64 bytes @ 0x08000200) -- Read from C cache (60 bytes @ 0x080001E8) - Data: 64 1E 01 F8 01 6B F9 D1 13 F0 08 0F 1E BF 10 F8 ...  returns 0x3C (0001ms, 15391ms total)
T55B0 1647:942 JLINK_ReadMemEx(0x08000224, 0x003C Bytes, ..., Flags = 0x02000000) -- CPU_ReadMem(64 bytes @ 0x08000240) -- Updating C cache (64 bytes @ 0x08000240) -- Read from C cache (60 bytes @ 0x08000224) - Data: 00 25 00 26 10 3A 28 BF 78 C1 FB D8 52 07 28 BF ...  returns 0x3C (0001ms, 15392ms total)
T55B0 1647:943 JLINK_ReadMemEx(0x08000260, 0x003C Bytes, ..., Flags = 0x02000000) -- CPU_ReadMem(64 bytes @ 0x08000280) -- Updating C cache (64 bytes @ 0x08000280) -- Read from C cache (60 bytes @ 0x08000260) - Data: 13 F0 7F FA 9D E8 03 00 00 F0 92 FB 00 F0 D6 FE ...  returns 0x3C (0000ms, 15392ms total)
T55B0 1647:943 JLINK_ReadMemEx(0x0800029C, 0x003C Bytes, ..., Flags = 0x02000000) -- CPU_ReadMem(64 bytes @ 0x080002C0) -- Updating C cache (64 bytes @ 0x080002C0) -- Read from C cache (60 bytes @ 0x0800029C) - Data: 01 F0 B6 FA 03 B4 FF F7 F2 FF 03 BC 01 F0 26 FB ...  returns 0x3C (0001ms, 15393ms total)
T55B0 1649:490 JLINK_ReadReg(R0)  returns 0x00000000 (0000ms, 15393ms total)
T55B0 1649:490 JLINK_ReadReg(R1)  returns 0x00000000 (0000ms, 15393ms total)
T55B0 1649:490 JLINK_ReadReg(R2)  returns 0x00000000 (0000ms, 15393ms total)
T55B0 1649:490 JLINK_ReadReg(R3)  returns 0x00000000 (0000ms, 15393ms total)
T55B0 1649:490 JLINK_ReadReg(R4)  returns 0x00000000 (0000ms, 15393ms total)
T55B0 1649:490 JLINK_ReadReg(R5)  returns 0x00000000 (0000ms, 15393ms total)
T55B0 1649:490 JLINK_ReadReg(R6)  returns 0x00000000 (0000ms, 15393ms total)
T55B0 1649:490 JLINK_ReadReg(R7)  returns 0x00000000 (0000ms, 15393ms total)
T55B0 1649:490 JLINK_ReadReg(R8)  returns 0x00000000 (0000ms, 15393ms total)
T55B0 1649:490 JLINK_ReadReg(R9)  returns 0x00000000 (0000ms, 15393ms total)
T55B0 1649:490 JLINK_ReadReg(R10)  returns 0x00000000 (0000ms, 15393ms total)
T55B0 1649:490 JLINK_ReadReg(R11)  returns 0x00000000 (0000ms, 15393ms total)
T55B0 1649:490 JLINK_ReadReg(R12)  returns 0x00000000 (0000ms, 15393ms total)
T55B0 1649:490 JLINK_ReadReg(R13 (SP))  returns 0x2000A7C8 (0000ms, 15393ms total)
T55B0 1649:490 JLINK_ReadReg(R14)  returns 0xFFFFFFFF (0000ms, 15393ms total)
T55B0 1649:490 JLINK_ReadReg(R15 (PC))  returns 0x080002AC (0000ms, 15393ms total)
T55B0 1649:490 JLINK_ReadReg(XPSR)  returns 0x01000000 (0000ms, 15393ms total)
T55B0 1649:490 JLINK_ReadReg(MSP)  returns 0x2000A7C8 (0000ms, 15393ms total)
T55B0 1649:490 JLINK_ReadReg(PSP)  returns 0x00000000 (0000ms, 15393ms total)
T55B0 1649:490 JLINK_ReadReg(CFBP)  returns 0x00000000 (0000ms, 15393ms total)
T55B0 1649:490 JLINK_ReadReg(FPSCR)  returns 0x00000000 (0003ms, 15396ms total)
T55B0 1649:493 JLINK_ReadReg(FPS0)  returns 0x00000000 (0000ms, 15396ms total)
T55B0 1649:493 JLINK_ReadReg(FPS1)  returns 0x00000000 (0000ms, 15396ms total)
T55B0 1649:493 JLINK_ReadReg(FPS2)  returns 0x00000000 (0000ms, 15396ms total)
T55B0 1649:493 JLINK_ReadReg(FPS3)  returns 0x00000000 (0000ms, 15396ms total)
T55B0 1649:493 JLINK_ReadReg(FPS4)  returns 0x00000000 (0000ms, 15396ms total)
T55B0 1649:493 JLINK_ReadReg(FPS5)  returns 0x00000000 (0000ms, 15396ms total)
T55B0 1649:493 JLINK_ReadReg(FPS6)  returns 0x00000000 (0000ms, 15396ms total)
T55B0 1649:493 JLINK_ReadReg(FPS7)  returns 0x00000000 (0000ms, 15396ms total)
T55B0 1649:493 JLINK_ReadReg(FPS8)  returns 0x00000000 (0000ms, 15396ms total)
T55B0 1649:493 JLINK_ReadReg(FPS9)  returns 0x00000000 (0000ms, 15396ms total)
T55B0 1649:493 JLINK_ReadReg(FPS10)  returns 0x00000000 (0000ms, 15396ms total)
T55B0 1649:493 JLINK_ReadReg(FPS11)  returns 0x00000000 (0000ms, 15396ms total)
T55B0 1649:493 JLINK_ReadReg(FPS12)  returns 0x00000000 (0000ms, 15396ms total)
T55B0 1649:493 JLINK_ReadReg(FPS13)  returns 0x00000000 (0000ms, 15396ms total)
T55B0 1649:493 JLINK_ReadReg(FPS14)  returns 0x00000000 (0000ms, 15396ms total)
T55B0 1649:493 JLINK_ReadReg(FPS15)  returns 0x00000000 (0000ms, 15396ms total)
T55B0 1649:493 JLINK_ReadReg(FPS16)  returns 0x00000000 (0000ms, 15396ms total)
T55B0 1649:493 JLINK_ReadReg(FPS17)  returns 0x00000000 (0000ms, 15396ms total)
T55B0 1649:493 JLINK_ReadReg(FPS18)  returns 0x00000000 (0000ms, 15396ms total)
T55B0 1649:493 JLINK_ReadReg(FPS19)  returns 0x00000000 (0001ms, 15397ms total)
T55B0 1649:494 JLINK_ReadReg(FPS20)  returns 0x00000000 (0000ms, 15397ms total)
T55B0 1649:494 JLINK_ReadReg(FPS21)  returns 0x00000000 (0000ms, 15397ms total)
T55B0 1649:494 JLINK_ReadReg(FPS22)  returns 0x00000000 (0000ms, 15397ms total)
T55B0 1649:494 JLINK_ReadReg(FPS23)  returns 0x00000000 (0000ms, 15397ms total)
T55B0 1649:494 JLINK_ReadReg(FPS24)  returns 0x00000000 (0000ms, 15397ms total)
T55B0 1649:494 JLINK_ReadReg(FPS25)  returns 0x00000000 (0000ms, 15397ms total)
T55B0 1649:494 JLINK_ReadReg(FPS26)  returns 0x00000000 (0000ms, 15397ms total)
T55B0 1649:494 JLINK_ReadReg(FPS27)  returns 0x00000000 (0000ms, 15397ms total)
T55B0 1649:494 JLINK_ReadReg(FPS28)  returns 0x00000000 (0000ms, 15397ms total)
T55B0 1649:494 JLINK_ReadReg(FPS29)  returns 0x00000000 (0000ms, 15397ms total)
T55B0 1649:494 JLINK_ReadReg(FPS30)  returns 0x00000000 (0000ms, 15397ms total)
T55B0 1649:494 JLINK_ReadReg(FPS31)  returns 0x00000000 (0000ms, 15397ms total)
T55B0 1649:630 JLINK_ReadMemEx(0x20000018, 0x0004 Bytes, ..., Flags = 0x02000000) -- CPU_ReadMem(64 bytes @ 0x20000000) -- Updating C cache (64 bytes @ 0x20000000) -- Read from C cache (4 bytes @ 0x20000018) - Data: 01 00 00 00  returns 0x04 (0001ms, 15398ms total)
T55B0 1649:637 JLINK_ReadMemEx(0x2000004C, 0x0001 Bytes, ..., Flags = 0x02000000) -- CPU_ReadMem(64 bytes @ 0x20000040) -- Updating C cache (64 bytes @ 0x20000040) -- Read from C cache (1 bytes @ 0x2000004C) - Data: D2  returns 0x01 (0001ms, 15399ms total)
T55B0 1649:663 JLINK_ReadMemEx(0x200001EC, 0x0001 Bytes, ..., Flags = 0x02000000) -- CPU_ReadMem(64 bytes @ 0x200001C0) -- Updating C cache (64 bytes @ 0x200001C0) -- Read from C cache (1 bytes @ 0x200001EC) - Data: 00  returns 0x01 (0001ms, 15400ms total)
T55B0 1649:670 JLINK_ReadMemEx(0x200001F1, 0x0001 Bytes, ..., Flags = 0x02000000) -- Read from C cache (1 bytes @ 0x200001F1) - Data: 00  returns 0x01 (0000ms, 15400ms total)
T55B0 1649:676 JLINK_ReadMemEx(0x200001ED, 0x0004 Bytes, ..., Flags = 0x02000000) -- Read from C cache (4 bytes @ 0x200001ED) - Data: 30 3A 2F 00  returns 0x04 (0000ms, 15400ms total)
T55B0 1649:695 JLINK_ReadMemEx(0x20000058, 0x0004 Bytes, ..., Flags = 0x02000000) -- Read from C cache (4 bytes @ 0x20000058) - Data: 00 00 00 00  returns 0x04 (0000ms, 15400ms total)
T55B0 1649:764 JLINK_ReadMemEx(0x200001DC, 0x0001 Bytes, ..., Flags = 0x02000000) -- Read from C cache (1 bytes @ 0x200001DC) - Data: 00  returns 0x01 (0000ms, 15400ms total)
T55B0 1649:790 JLINK_ReadMemEx(0x20000DA8, 0x0020 Bytes, ..., Flags = 0x02000000) -- CPU_ReadMem(128 bytes @ 0x20000D80) -- Updating C cache (128 bytes @ 0x20000D80) -- Read from C cache (32 bytes @ 0x20000DA8) - Data: 00 00 00 00 00 00 00 00 00 00 00 00 00 00 00 00 ...  returns 0x20 (0000ms, 15400ms total)
T55B0 1649:813 JLINK_ReadMemEx(0x2000003C, 0x0004 Bytes, ..., Flags = 0x02000000) -- Read from C cache (4 bytes @ 0x2000003C) - Data: 00 00 00 00  returns 0x04 (0001ms, 15401ms total)
T5C8C 1650:242 JLINK_ReadMemEx(0x080002AC, 0x0002 Bytes, ..., Flags = 0x02000000) -- Read from C cache (2 bytes @ 0x080002AC) - Data: 09 48  returns 0x02 (0000ms, 15401ms total)
T5C8C 1650:242 JLINK_SetBPEx(Addr = 0x08011498, Type = 0xFFFFFFF2)  returns 0x00000001 (0000ms, 15401ms total)
T5C8C 1650:242 JLINK_SetBPEx(Addr = 0x08010840, Type = 0xFFFFFFF2)  returns 0x00000002 (0000ms, 15401ms total)
T5C8C 1650:242 JLINK_SetBPEx(Addr = 0x0801089C, Type = 0xFFFFFFF2)  returns 0x00000003 (0000ms, 15401ms total)
T5C8C 1650:242 JLINK_SetBPEx(Addr = 0x08011112, Type = 0xFFFFFFF2)  returns 0x00000004 (0000ms, 15401ms total)
T5C8C 1650:242 JLINK_SetBPEx(Addr = 0x0800ECA6, Type = 0xFFFFFFF2)  returns 0x00000005 (0000ms, 15401ms total)
T5C8C 1650:242 JLINK_Go() -- CPU_WriteMem(4 bytes @ 0xE0002000) -- CPU_WriteMem(4 bytes @ 0xE0002000) -- CPU_WriteMem(4 bytes @ 0xE0002000) -- CPU_WriteMem(4 bytes @ 0xE0002000) -- CPU_WriteMem(4 bytes @ 0xE0002000) -- CPU_ReadMem(4 bytes @ 0xE0001000) -- CPU_WriteMem(4 bytes @ 0xE0002008) -- CPU_WriteMem(4 bytes @ 0xE000200C) -- CPU_WriteMem(4 bytes @ 0xE0002010) -- CPU_WriteMem(4 bytes @ 0xE0002014) -- CPU_WriteMem(4 bytes @ 0xE0002018) -- CPU_WriteMem(4 bytes @ 0xE000201C)
 -- CPU_WriteMem(4 bytes @ 0xE0001004) (0004ms, 15405ms total)
T5C8C 1650:347 JLINK_IsHalted()  returns TRUE (0002ms, 15407ms total)
T5C8C 1650:349 JLINK_Halt()  returns 0x00 (0000ms, 15405ms total)
T5C8C 1650:349 JLINK_IsHalted()  returns TRUE (0000ms, 15405ms total)
T5C8C 1650:349 JLINK_IsHalted()  returns TRUE (0000ms, 15405ms total)
T5C8C 1650:349 JLINK_IsHalted()  returns TRUE (0000ms, 15405ms total)
T5C8C 1650:349 JLINK_ReadReg(R15 (PC))  returns 0x08011498 (0000ms, 15405ms total)
T5C8C 1650:349 JLINK_ReadReg(XPSR)  returns 0x61000000 (0000ms, 15405ms total)
T5C8C 1650:349 JLINK_ClrBPEx(BPHandle = 0x00000001)  returns 0x00 (0000ms, 15405ms total)
T5C8C 1650:349 JLINK_ClrBPEx(BPHandle = 0x00000002)  returns 0x00 (0000ms, 15405ms total)
T5C8C 1650:349 JLINK_ClrBPEx(BPHandle = 0x00000003)  returns 0x00 (0000ms, 15405ms total)
T5C8C 1650:349 JLINK_ClrBPEx(BPHandle = 0x00000004)  returns 0x00 (0000ms, 15405ms total)
T5C8C 1650:349 JLINK_ClrBPEx(BPHandle = 0x00000005)  returns 0x00 (0000ms, 15405ms total)
T5C8C 1650:349 JLINK_ReadMemU32(0xE000ED30, 0x0001 Items, ...) -- CPU_ReadMem(4 bytes @ 0xE000ED30) - Data: 02 00 00 00  returns 0x01 (0000ms, 15405ms total)
T5C8C 1650:349 JLINK_ReadMemU32(0xE0001028, 0x0001 Items, ...) -- CPU_ReadMem(4 bytes @ 0xE0001028) - Data: 00 00 00 00  returns 0x01 (0001ms, 15406ms total)
T5C8C 1650:350 JLINK_ReadMemU32(0xE0001038, 0x0001 Items, ...) -- CPU_ReadMem(4 bytes @ 0xE0001038) - Data: 00 02 00 00  returns 0x01 (0000ms, 15406ms total)
T5C8C 1650:350 JLINK_ReadMemU32(0xE0001048, 0x0001 Items, ...) -- CPU_ReadMem(4 bytes @ 0xE0001048) - Data: 00 00 00 00  returns 0x01 (0000ms, 15406ms total)
T5C8C 1650:350 JLINK_ReadMemU32(0xE0001058, 0x0001 Items, ...) -- CPU_ReadMem(4 bytes @ 0xE0001058) - Data: 00 00 00 00  returns 0x01 (0001ms, 15407ms total)
T5C8C 1650:351 JLINK_ReadReg(R0)  returns 0x200047C8 (0000ms, 15407ms total)
T5C8C 1650:351 JLINK_ReadReg(R1)  returns 0x200077C8 (0000ms, 15407ms total)
T5C8C 1650:351 JLINK_ReadReg(R2)  returns 0x200077C8 (0000ms, 15407ms total)
T5C8C 1650:351 JLINK_ReadReg(R3)  returns 0x200077C8 (0000ms, 15407ms total)
T5C8C 1650:351 JLINK_ReadReg(R4)  returns 0x00000000 (0000ms, 15407ms total)
T5C8C 1650:351 JLINK_ReadReg(R5)  returns 0x20004768 (0000ms, 15407ms total)
T5C8C 1650:351 JLINK_ReadReg(R6)  returns 0x00000000 (0000ms, 15407ms total)
T5C8C 1650:351 JLINK_ReadReg(R7)  returns 0x00000000 (0000ms, 15407ms total)
T5C8C 1650:351 JLINK_ReadReg(R8)  returns 0x00000000 (0000ms, 15407ms total)
T5C8C 1650:351 JLINK_ReadReg(R9)  returns 0x00000000 (0000ms, 15407ms total)
T5C8C 1650:351 JLINK_ReadReg(R10)  returns 0x0803EB4C (0000ms, 15407ms total)
T5C8C 1650:351 JLINK_ReadReg(R11)  returns 0x00000000 (0000ms, 15407ms total)
T5C8C 1650:351 JLINK_ReadReg(R12)  returns 0x200047D8 (0000ms, 15407ms total)
T5C8C 1650:351 JLINK_ReadReg(R13 (SP))  returns 0x2000A7C8 (0000ms, 15407ms total)
T5C8C 1650:351 JLINK_ReadReg(R14)  returns 0x0800029D (0000ms, 15407ms total)
T5C8C 1650:351 JLINK_ReadReg(R15 (PC))  returns 0x08011498 (0000ms, 15407ms total)
T5C8C 1650:351 JLINK_ReadReg(XPSR)  returns 0x61000000 (0000ms, 15407ms total)
T5C8C 1650:351 JLINK_ReadReg(MSP)  returns 0x2000A7C8 (0000ms, 15407ms total)
T5C8C 1650:351 JLINK_ReadReg(PSP)  returns 0x00000000 (0000ms, 15407ms total)
T5C8C 1650:351 JLINK_ReadReg(CFBP)  returns 0x04000000 (0000ms, 15407ms total)
T5C8C 1650:351 JLINK_ReadReg(FPSCR)  returns 0x03000000 (0003ms, 15410ms total)
T5C8C 1650:354 JLINK_ReadReg(FPS0)  returns 0x00000000 (0000ms, 15410ms total)
T5C8C 1650:354 JLINK_ReadReg(FPS1)  returns 0x00000000 (0000ms, 15410ms total)
T5C8C 1650:354 JLINK_ReadReg(FPS2)  returns 0x00000000 (0000ms, 15410ms total)
T5C8C 1650:354 JLINK_ReadReg(FPS3)  returns 0x00000000 (0000ms, 15410ms total)
T5C8C 1650:354 JLINK_ReadReg(FPS4)  returns 0x00000000 (0000ms, 15410ms total)
T5C8C 1650:354 JLINK_ReadReg(FPS5)  returns 0x00000000 (0000ms, 15410ms total)
T5C8C 1650:354 JLINK_ReadReg(FPS6)  returns 0x00000000 (0000ms, 15410ms total)
T5C8C 1650:354 JLINK_ReadReg(FPS7)  returns 0x00000000 (0000ms, 15410ms total)
T5C8C 1650:354 JLINK_ReadReg(FPS8)  returns 0x00000000 (0000ms, 15410ms total)
T5C8C 1650:354 JLINK_ReadReg(FPS9)  returns 0x00000000 (0001ms, 15411ms total)
T5C8C 1650:355 JLINK_ReadReg(FPS10)  returns 0x00000000 (0000ms, 15411ms total)
T5C8C 1650:355 JLINK_ReadReg(FPS11)  returns 0x00000000 (0000ms, 15411ms total)
T5C8C 1650:355 JLINK_ReadReg(FPS12)  returns 0x00000000 (0000ms, 15411ms total)
T5C8C 1650:355 JLINK_ReadReg(FPS13)  returns 0x00000000 (0000ms, 15411ms total)
T5C8C 1650:355 JLINK_ReadReg(FPS14)  returns 0x00000000 (0000ms, 15411ms total)
T5C8C 1650:355 JLINK_ReadReg(FPS15)  returns 0x00000000 (0000ms, 15411ms total)
T5C8C 1650:355 JLINK_ReadReg(FPS16)  returns 0x00000000 (0000ms, 15411ms total)
T5C8C 1650:355 JLINK_ReadReg(FPS17)  returns 0x00000000 (0000ms, 15411ms total)
T5C8C 1650:355 JLINK_ReadReg(FPS18)  returns 0x00000000 (0000ms, 15411ms total)
T5C8C 1650:355 JLINK_ReadReg(FPS19)  returns 0x00000000 (0000ms, 15411ms total)
T5C8C 1650:355 JLINK_ReadReg(FPS20)  returns 0x00000000 (0000ms, 15411ms total)
T5C8C 1650:355 JLINK_ReadReg(FPS21)  returns 0x00000000 (0000ms, 15411ms total)
T5C8C 1650:355 JLINK_ReadReg(FPS22)  returns 0x00000000 (0000ms, 15411ms total)
T5C8C 1650:355 JLINK_ReadReg(FPS23)  returns 0x00000000 (0000ms, 15411ms total)
T5C8C 1650:355 JLINK_ReadReg(FPS24)  returns 0x00000000 (0000ms, 15411ms total)
T5C8C 1650:355 JLINK_ReadReg(FPS25)  returns 0x00000000 (0000ms, 15411ms total)
T5C8C 1650:355 JLINK_ReadReg(FPS26)  returns 0x00000000 (0000ms, 15411ms total)
T5C8C 1650:355 JLINK_ReadReg(FPS27)  returns 0x00000000 (0000ms, 15411ms total)
T5C8C 1650:355 JLINK_ReadReg(FPS28)  returns 0x00000000 (0000ms, 15411ms total)
T5C8C 1650:355 JLINK_ReadReg(FPS29)  returns 0x00000000 (0000ms, 15411ms total)
T5C8C 1650:355 JLINK_ReadReg(FPS30)  returns 0x00000000 (0000ms, 15411ms total)
T5C8C 1650:355 JLINK_ReadReg(FPS31)  returns 0x00000000 (0000ms, 15411ms total)
T55B0 1650:361 JLINK_ReadMemEx(0x20000018, 0x0004 Bytes, ..., Flags = 0x02000000) -- CPU_ReadMem(64 bytes @ 0x20000000) -- Updating C cache (64 bytes @ 0x20000000) -- Read from C cache (4 bytes @ 0x20000018) - Data: 00 00 00 00  returns 0x04 (0001ms, 15412ms total)
T55B0 1650:363 JLINK_ReadMemEx(0x2000004C, 0x0001 Bytes, ..., Flags = 0x02000000) -- CPU_ReadMem(64 bytes @ 0x20000040) -- Updating C cache (64 bytes @ 0x20000040) -- Read from C cache (1 bytes @ 0x2000004C) - Data: 00  returns 0x01 (0000ms, 15412ms total)
T55B0 1650:363 JLINK_ReadMemEx(0x200001EC, 0x0001 Bytes, ..., Flags = 0x02000000) -- CPU_ReadMem(64 bytes @ 0x200001C0) -- Updating C cache (64 bytes @ 0x200001C0) -- Read from C cache (1 bytes @ 0x200001EC) - Data: 00  returns 0x01 (0001ms, 15413ms total)
T55B0 1650:364 JLINK_ReadMemEx(0x200001F1, 0x0001 Bytes, ..., Flags = 0x02000000) -- Read from C cache (1 bytes @ 0x200001F1) - Data: 00  returns 0x01 (0000ms, 15413ms total)
T55B0 1650:364 JLINK_ReadMemEx(0x200001ED, 0x0004 Bytes, ..., Flags = 0x02000000) -- Read from C cache (4 bytes @ 0x200001ED) - Data: 00 00 00 00  returns 0x04 (0000ms, 15413ms total)
T55B0 1650:364 JLINK_ReadMemEx(0x20000058, 0x0004 Bytes, ..., Flags = 0x02000000) -- Read from C cache (4 bytes @ 0x20000058) - Data: 00 00 00 00  returns 0x04 (0000ms, 15413ms total)
T55B0 1650:366 JLINK_ReadMemEx(0x200001DC, 0x0001 Bytes, ..., Flags = 0x02000000) -- Read from C cache (1 bytes @ 0x200001DC) - Data: 00  returns 0x01 (0000ms, 15413ms total)
T55B0 1650:366 JLINK_ReadMemEx(0x20000DA8, 0x0020 Bytes, ..., Flags = 0x02000000) -- CPU_ReadMem(128 bytes @ 0x20000D80) -- Updating C cache (128 bytes @ 0x20000D80) -- Read from C cache (32 bytes @ 0x20000DA8) - Data: 00 00 00 00 00 00 00 00 00 00 00 00 00 00 00 00 ...  returns 0x20 (0001ms, 15414ms total)
T55B0 1650:368 JLINK_ReadMemEx(0x2000003C, 0x0004 Bytes, ..., Flags = 0x02000000) -- Read from C cache (4 bytes @ 0x2000003C) - Data: 00 00 00 00  returns 0x04 (0000ms, 15414ms total)
T55B0 1650:383 JLINK_ReadMemEx(0x08011398, 0x003C Bytes, ..., Flags = 0x02000000) -- CPU_ReadMem(128 bytes @ 0x08011380) -- Updating C cache (128 bytes @ 0x08011380) -- Read from C cache (60 bytes @ 0x08011398) - Data: 10 B5 00 24 41 21 26 48 00 F0 9E FB 04 46 00 2C ...  returns 0x3C (0000ms, 15414ms total)
T55B0 1650:383 JLINK_ReadMemEx(0x080113D4, 0x002C Bytes, ..., Flags = 0x02000000) -- Read from C cache (44 bytes @ 0x080113D4) - Data: D3 FD 1A 49 09 68 40 1A 46 F2 A8 11 88 42 16 D3 ...  returns 0x2C (0001ms, 15415ms total)
T55B0 1650:384 JLINK_ReadMemEx(0x08011400, 0x0010 Bytes, ..., Flags = 0x02000000) -- CPU_ReadMem(64 bytes @ 0x08011400) -- Updating C cache (64 bytes @ 0x08011400) -- Read from C cache (16 bytes @ 0x08011400) - Data: 49 FA 01 F0 7F F8 F3 F7 57 FA F2 F7 B7 FD 0C 49  returns 0x10 (0000ms, 15415ms total)
T55B0 1650:384 JLINK_ReadMemEx(0x08011410, 0x003C Bytes, ..., Flags = 0x02000000) -- CPU_ReadMem(64 bytes @ 0x08011440) -- Updating C cache (64 bytes @ 0x08011440) -- Read from C cache (60 bytes @ 0x08011410) - Data: 08 60 F2 F7 B3 FD 0B 49 09 68 40 1A 40 F6 B8 31 ...  returns 0x3C (0000ms, 15415ms total)
T55B0 1650:384 JLINK_ReadMemEx(0x0801144C, 0x003C Bytes, ..., Flags = 0x02000000) -- CPU_ReadMem(64 bytes @ 0x08011480) -- Updating C cache (64 bytes @ 0x08011480) -- Read from C cache (60 bytes @ 0x0801144C) - Data: 70 B5 05 46 0C 46 04 F1 1A 00 00 F0 18 F8 06 46 ...  returns 0x3C (0001ms, 15416ms total)
T55B0 1650:385 JLINK_ReadMemEx(0x08011488, 0x003C Bytes, ..., Flags = 0x02000000) -- CPU_ReadMem(64 bytes @ 0x080114C0) -- Updating C cache (64 bytes @ 0x080114C0) -- Read from C cache (60 bytes @ 0x08011488) - Data: 70 47 01 46 48 78 0A 78 42 EA 00 20 70 47 00 00 ...  returns 0x3C (0001ms, 15417ms total)
T55B0 1656:354 JLINK_ReadMemEx(0x200009F8, 0x0008 Bytes, ..., Flags = 0x02000000) -- CPU_ReadMem(64 bytes @ 0x200009C0) -- Updating C cache (64 bytes @ 0x200009C0) -- Read from C cache (8 bytes @ 0x200009F8) - Data: 00 00 00 00 00 00 00 00  returns 0x08 (0001ms, 15418ms total)
T55B0 1656:355 JLINK_ReadMemEx(0x20000A00, 0x0008 Bytes, ..., Flags = 0x02000000) -- CPU_ReadMem(64 bytes @ 0x20000A00) -- Updating C cache (64 bytes @ 0x20000A00) -- Read from C cache (8 bytes @ 0x20000A00) - Data: 00 00 00 00 00 00 00 00  returns 0x08 (0001ms, 15419ms total)
T55B0 1656:356 JLINK_ReadMemEx(0x20000A08, 0x0008 Bytes, ..., Flags = 0x02000000) -- Read from C cache (8 bytes @ 0x20000A08) - Data: 00 00 00 00 00 00 00 00  returns 0x08 (0000ms, 15419ms total)
T55B0 1656:356 JLINK_ReadMemEx(0x20000A10, 0x0008 Bytes, ..., Flags = 0x02000000) -- Read from C cache (8 bytes @ 0x20000A10) - Data: 00 00 00 00 00 00 00 00  returns 0x08 (0000ms, 15419ms total)
T55B0 1656:356 JLINK_ReadMemEx(0x20000A18, 0x0008 Bytes, ..., Flags = 0x02000000) -- Read from C cache (8 bytes @ 0x20000A18) - Data: 00 00 00 00 00 00 00 00  returns 0x08 (0000ms, 15419ms total)
T55B0 1656:356 JLINK_ReadMemEx(0x20000A20, 0x0008 Bytes, ..., Flags = 0x02000000) -- Read from C cache (8 bytes @ 0x20000A20) - Data: 00 00 00 00 00 00 00 00  returns 0x08 (0000ms, 15419ms total)
T55B0 1656:356 JLINK_ReadMemEx(0x20000A28, 0x0008 Bytes, ..., Flags = 0x02000000) -- Read from C cache (8 bytes @ 0x20000A28) - Data: 00 00 00 00 00 00 00 00  returns 0x08 (0000ms, 15419ms total)
T55B0 1656:356 JLINK_ReadMemEx(0x20000A30, 0x0008 Bytes, ..., Flags = 0x02000000) -- Read from C cache (8 bytes @ 0x20000A30) - Data: 00 00 00 00 00 00 00 00  returns 0x08 (0000ms, 15419ms total)
T55B0 1656:356 JLINK_ReadMemEx(0x20000A38, 0x0008 Bytes, ..., Flags = 0x02000000) -- Read from C cache (8 bytes @ 0x20000A38) - Data: 00 00 00 00 00 00 00 00  returns 0x08 (0000ms, 15419ms total)
T55B0 1656:356 JLINK_ReadMemEx(0x20000A40, 0x0008 Bytes, ..., Flags = 0x02000000) -- CPU_ReadMem(64 bytes @ 0x20000A40) -- Updating C cache (64 bytes @ 0x20000A40) -- Read from C cache (8 bytes @ 0x20000A40) - Data: 00 00 00 00 00 00 00 00  returns 0x08 (0001ms, 15420ms total)
T55B0 1656:357 JLINK_ReadMemEx(0x20000A48, 0x0008 Bytes, ..., Flags = 0x02000000) -- Read from C cache (8 bytes @ 0x20000A48) - Data: 00 00 00 00 00 00 00 00  returns 0x08 (0000ms, 15420ms total)
T55B0 1656:357 JLINK_ReadMemEx(0x20000A50, 0x0008 Bytes, ..., Flags = 0x02000000) -- Read from C cache (8 bytes @ 0x20000A50) - Data: 00 00 00 00 00 00 00 00  returns 0x08 (0000ms, 15420ms total)
T55B0 1656:357 JLINK_ReadMemEx(0x20000A58, 0x0008 Bytes, ..., Flags = 0x02000000) -- Read from C cache (8 bytes @ 0x20000A58) - Data: 00 00 00 00 00 00 00 00  returns 0x08 (0000ms, 15420ms total)
T55B0 1656:357 JLINK_ReadMemEx(0x20000A60, 0x0008 Bytes, ..., Flags = 0x02000000) -- Read from C cache (8 bytes @ 0x20000A60) - Data: 00 00 00 00 00 00 00 00  returns 0x08 (0000ms, 15420ms total)
T55B0 1656:357 JLINK_ReadMemEx(0x20000A68, 0x0001 Bytes, ..., Flags = 0x02000000) -- Read from C cache (1 bytes @ 0x20000A68) - Data: 00  returns 0x01 (0000ms, 15420ms total)
T55B0 1656:357 JLINK_ReadMemEx(0x20000A69, 0x0001 Bytes, ..., Flags = 0x02000000) -- Read from C cache (1 bytes @ 0x20000A69) - Data: 00  returns 0x01 (0000ms, 15420ms total)
T55B0 1656:357 JLINK_ReadMemEx(0x20000A70, 0x0008 Bytes, ..., Flags = 0x02000000) -- Read from C cache (8 bytes @ 0x20000A70) - Data: 00 00 00 00 00 00 00 00  returns 0x08 (0000ms, 15420ms total)
T55B0 1656:357 JLINK_ReadMemEx(0x20000A78, 0x0008 Bytes, ..., Flags = 0x02000000) -- Read from C cache (8 bytes @ 0x20000A78) - Data: 00 00 00 00 00 00 00 00  returns 0x08 (0000ms, 15420ms total)
T55B0 1656:357 JLINK_ReadMemEx(0x20000A80, 0x0008 Bytes, ..., Flags = 0x02000000) -- CPU_ReadMem(64 bytes @ 0x20000A80) -- Updating C cache (64 bytes @ 0x20000A80) -- Read from C cache (8 bytes @ 0x20000A80) - Data: 00 00 00 00 00 00 00 00  returns 0x08 (0001ms, 15421ms total)
T55B0 1656:358 JLINK_ReadMemEx(0x20000A88, 0x0008 Bytes, ..., Flags = 0x02000000) -- Read from C cache (8 bytes @ 0x20000A88) - Data: 00 00 00 00 00 00 00 00  returns 0x08 (0000ms, 15421ms total)
T5C8C 1658:030 JLINK_ReadMemEx(0x08011498, 0x0002 Bytes, ..., Flags = 0x02000000) -- Read from C cache (2 bytes @ 0x08011498) - Data: F3 F7  returns 0x02 (0000ms, 15421ms total)
T5C8C 1658:030 JLINK_SetBPEx(Addr = 0x08010840, Type = 0xFFFFFFF2)  returns 0x00000006 (0000ms, 15421ms total)
T5C8C 1658:030 JLINK_SetBPEx(Addr = 0x0801089C, Type = 0xFFFFFFF2)  returns 0x00000007 (0000ms, 15421ms total)
T5C8C 1658:030 JLINK_SetBPEx(Addr = 0x08011112, Type = 0xFFFFFFF2)  returns 0x00000008 (0000ms, 15421ms total)
T5C8C 1658:030 JLINK_SetBPEx(Addr = 0x0800ECA6, Type = 0xFFFFFFF2)  returns 0x00000009 (0000ms, 15421ms total)
T5C8C 1658:030 JLINK_Go() -- CPU_WriteMem(4 bytes @ 0xE0002000) -- CPU_WriteMem(4 bytes @ 0xE0002000) -- CPU_WriteMem(4 bytes @ 0xE0002000) -- CPU_WriteMem(4 bytes @ 0xE0002000) -- CPU_ReadMem(4 bytes @ 0xE0001000) -- CPU_WriteMem(4 bytes @ 0xE0002008) -- CPU_WriteMem(4 bytes @ 0xE000200C) -- CPU_WriteMem(4 bytes @ 0xE0002010) -- CPU_WriteMem(4 bytes @ 0xE0002014) -- CPU_WriteMem(4 bytes @ 0xE0002018) (0003ms, 15424ms total)
T5C8C 1658:134 JLINK_IsHalted()  returns FALSE (0000ms, 15424ms total)
T5C8C 1658:235 JLINK_IsHalted()  returns FALSE (0000ms, 15424ms total)
T5C8C 1658:336 JLINK_IsHalted()  returns FALSE (0000ms, 15424ms total)
T5C8C 1658:437 JLINK_IsHalted()  returns FALSE (0000ms, 15424ms total)
T5C8C 1658:537 JLINK_ReadMemU32(0xE0001004, 0x0001 Items, ...) -- CPU_ReadMem(4 bytes @ 0xE0001004) - Data: 1A 45 29 02  returns 0x01 (0000ms, 15424ms total)
T55B0 1658:539 JLINK_ReadMemEx(0x20000018, 0x0004 Bytes, ..., Flags = 0x02000000) -- CPU_ReadMem(4 bytes @ 0x20000018) - Data: 01 00 00 00  returns 0x04 (0000ms, 15424ms total)
T55B0 1658:540 JLINK_ReadMemEx(0x2000004C, 0x0001 Bytes, ..., Flags = 0x02000000) -- CPU_ReadMem(1 bytes @ 0x2000004C) - Data: D2  returns 0x01 (0000ms, 15424ms total)
T55B0 1658:541 JLINK_ReadMemEx(0x200009F8, 0x0008 Bytes, ..., Flags = 0x02000000) -- CPU_ReadMem(8 bytes @ 0x200009F8) - Data: 00 00 00 00 00 00 00 00  returns 0x08 (0000ms, 15424ms total)
T55B0 1658:541 JLINK_ReadMemEx(0x20000A00, 0x0008 Bytes, ..., Flags = 0x02000000) -- CPU_ReadMem(8 bytes @ 0x20000A00) - Data: 00 00 00 00 00 00 10 40  returns 0x08 (0000ms, 15424ms total)
T55B0 1658:542 JLINK_ReadMemEx(0x20000A08, 0x0008 Bytes, ..., Flags = 0x02000000) -- CPU_ReadMem(8 bytes @ 0x20000A08) - Data: 00 00 00 00 00 70 97 40  returns 0x08 (0000ms, 15424ms total)
T55B0 1658:542 JLINK_ReadMemEx(0x20000A10, 0x0008 Bytes, ..., Flags = 0x02000000) -- CPU_ReadMem(8 bytes @ 0x20000A10) - Data: 66 66 66 66 66 66 EE 3F  returns 0x08 (0000ms, 15424ms total)
T55B0 1658:543 JLINK_ReadMemEx(0x20000A18, 0x0008 Bytes, ..., Flags = 0x02000000) -- CPU_ReadMem(8 bytes @ 0x20000A18) - Data: 9A 99 99 99 99 99 E9 3F  returns 0x08 (0000ms, 15424ms total)
T55B0 1658:543 JLINK_ReadMemEx(0x20000A20, 0x0008 Bytes, ..., Flags = 0x02000000) -- CPU_ReadMem(8 bytes @ 0x20000A20) - Data: 00 00 00 00 00 00 00 00  returns 0x08 (0000ms, 15424ms total)
T55B0 1658:543 JLINK_ReadMemEx(0x20000A28, 0x0008 Bytes, ..., Flags = 0x02000000) -- CPU_ReadMem(8 bytes @ 0x20000A28) - Data: 00 00 00 00 00 00 00 00  returns 0x08 (0001ms, 15425ms total)
T55B0 1658:544 JLINK_ReadMemEx(0x20000A30, 0x0008 Bytes, ..., Flags = 0x02000000) -- CPU_ReadMem(8 bytes @ 0x20000A30) - Data: 00 00 00 00 00 00 00 00  returns 0x08 (0000ms, 15425ms total)
T55B0 1658:544 JLINK_ReadMemEx(0x20000A38, 0x0008 Bytes, ..., Flags = 0x02000000) -- CPU_ReadMem(8 bytes @ 0x20000A38) - Data: 00 00 00 00 00 00 00 00  returns 0x08 (0000ms, 15425ms total)
T55B0 1658:544 JLINK_ReadMemEx(0x20000A40, 0x0008 Bytes, ..., Flags = 0x02000000) -- CPU_ReadMem(8 bytes @ 0x20000A40) - Data: 00 00 00 00 00 00 00 00  returns 0x08 (0000ms, 15425ms total)
T55B0 1658:544 JLINK_ReadMemEx(0x20000A48, 0x0008 Bytes, ..., Flags = 0x02000000) -- CPU_ReadMem(8 bytes @ 0x20000A48) - Data: 00 00 00 00 00 00 00 00  returns 0x08 (0001ms, 15426ms total)
T55B0 1658:545 JLINK_ReadMemEx(0x20000A50, 0x0008 Bytes, ..., Flags = 0x02000000) -- CPU_ReadMem(8 bytes @ 0x20000A50) - Data: 00 00 00 00 00 00 00 00  returns 0x08 (0000ms, 15426ms total)
T55B0 1658:545 JLINK_ReadMemEx(0x20000A58, 0x0008 Bytes, ..., Flags = 0x02000000) -- CPU_ReadMem(8 bytes @ 0x20000A58) - Data: 00 00 00 00 00 00 00 00  returns 0x08 (0000ms, 15426ms total)
T55B0 1658:545 JLINK_ReadMemEx(0x20000A60, 0x0008 Bytes, ..., Flags = 0x02000000) -- CPU_ReadMem(8 bytes @ 0x20000A60) - Data: 00 00 00 00 00 00 00 00  returns 0x08 (0000ms, 15426ms total)
T55B0 1658:545 JLINK_ReadMemEx(0x20000A68, 0x0001 Bytes, ..., Flags = 0x02000000) -- CPU_ReadMem(1 bytes @ 0x20000A68) - Data: 00  returns 0x01 (0002ms, 15428ms total)
T55B0 1658:547 JLINK_ReadMemEx(0x20000A69, 0x0001 Bytes, ..., Flags = 0x02000000) -- CPU_ReadMem(1 bytes @ 0x20000A69) - Data: 00  returns 0x01 (0000ms, 15428ms total)
T55B0 1658:547 JLINK_ReadMemEx(0x20000A70, 0x0008 Bytes, ..., Flags = 0x02000000) -- CPU_ReadMem(8 bytes @ 0x20000A70) - Data: 00 00 00 00 00 00 00 00  returns 0x08 (0000ms, 15428ms total)
T55B0 1658:547 JLINK_ReadMemEx(0x20000A78, 0x0008 Bytes, ..., Flags = 0x02000000) -- CPU_ReadMem(8 bytes @ 0x20000A78) - Data: 00 00 00 00 00 00 00 00  returns 0x08 (0000ms, 15428ms total)
T55B0 1658:547 JLINK_ReadMemEx(0x20000A80, 0x0008 Bytes, ..., Flags = 0x02000000) -- CPU_ReadMem(8 bytes @ 0x20000A80) - Data: 00 00 00 00 00 00 00 00  returns 0x08 (0001ms, 15429ms total)
T55B0 1658:548 JLINK_ReadMemEx(0x20000A88, 0x0008 Bytes, ..., Flags = 0x02000000) -- CPU_ReadMem(8 bytes @ 0x20000A88) - Data: 00 00 00 00 00 00 00 00  returns 0x08 (0000ms, 15429ms total)
T55B0 1658:548 JLINK_ReadMemEx(0x200001EC, 0x0001 Bytes, ..., Flags = 0x02000000) -- CPU_ReadMem(1 bytes @ 0x200001EC) - Data: 00  returns 0x01 (0000ms, 15429ms total)
T55B0 1658:548 JLINK_ReadMemEx(0x200001F1, 0x0001 Bytes, ..., Flags = 0x02000000) -- CPU_ReadMem(1 bytes @ 0x200001F1) - Data: 00  returns 0x01 (0001ms, 15430ms total)
T55B0 1658:549 JLINK_ReadMemEx(0x200001ED, 0x0004 Bytes, ..., Flags = 0x02000000) -- CPU_ReadMem(4 bytes @ 0x200001ED) - Data: 30 3A 2F 00  returns 0x04 (0000ms, 15430ms total)
T55B0 1658:549 JLINK_ReadMemEx(0x200001EC, 0x0001 Bytes, ..., Flags = 0x02000000) -- CPU_ReadMem(1 bytes @ 0x200001EC) - Data: 00  returns 0x01 (0001ms, 15431ms total)
T55B0 1658:550 JLINK_ReadMemEx(0x20000058, 0x0004 Bytes, ..., Flags = 0x02000000) -- CPU_ReadMem(4 bytes @ 0x20000058) - Data: 00 00 00 00  returns 0x04 (0000ms, 15431ms total)
T55B0 1658:551 JLINK_ReadMemEx(0x2000004C, 0x0001 Bytes, ..., Flags = 0x02000000) -- CPU_ReadMem(1 bytes @ 0x2000004C) - Data: D2  returns 0x01 (0000ms, 15431ms total)
T55B0 1658:563 JLINK_ReadMemEx(0x200001DC, 0x0001 Bytes, ..., Flags = 0x02000000) -- CPU_ReadMem(1 bytes @ 0x200001DC) - Data: 00  returns 0x01 (0000ms, 15431ms total)
T55B0 1658:564 JLINK_ReadMemEx(0x20000DA8, 0x0020 Bytes, ..., Flags = 0x02000000) -- CPU_ReadMem(32 bytes @ 0x20000DA8) - Data: 00 00 00 00 00 00 00 00 00 00 00 00 00 00 00 00 ...  returns 0x20 (0000ms, 15431ms total)
T55B0 1658:564 JLINK_ReadMemEx(0x2000003C, 0x0004 Bytes, ..., Flags = 0x02000000) -- CPU_ReadMem(4 bytes @ 0x2000003C) - Data: 00 00 00 00  returns 0x04 (0001ms, 15432ms total)
T55B0 1658:565 JLINK_ReadMemEx(0x2000003C, 0x0004 Bytes, ..., Flags = 0x02000000) -- CPU_ReadMem(4 bytes @ 0x2000003C) - Data: 00 00 00 00  returns 0x04 (0000ms, 15432ms total)
T55B0 1658:565 JLINK_ReadMemEx(0x2000003C, 0x0004 Bytes, ..., Flags = 0x02000000) -- CPU_ReadMem(4 bytes @ 0x2000003C) - Data: 00 00 00 00  returns 0x04 (0001ms, 15433ms total)
T55B0 1658:567 JLINK_ReadMemEx(0x20000058, 0x0004 Bytes, ..., Flags = 0x02000000) -- CPU_ReadMem(4 bytes @ 0x20000058) - Data: 00 00 00 00  returns 0x04 (0000ms, 15433ms total)
T5C8C 1658:568 JLINK_IsHalted()  returns FALSE (0000ms, 15433ms total)
T5C8C 1658:669 JLINK_IsHalted()  returns FALSE (0000ms, 15433ms total)
T5C8C 1658:770 JLINK_IsHalted()  returns TRUE (0001ms, 15434ms total)
T5C8C 1658:772 JLINK_Halt()  returns 0x00 (0000ms, 15433ms total)
T5C8C 1658:772 JLINK_IsHalted()  returns TRUE (0000ms, 15433ms total)
T5C8C 1658:772 JLINK_IsHalted()  returns TRUE (0000ms, 15433ms total)
T5C8C 1658:772 JLINK_IsHalted()  returns TRUE (0000ms, 15433ms total)
T5C8C 1658:772 JLINK_ReadReg(R15 (PC))  returns 0x08011112 (0000ms, 15433ms total)
T5C8C 1658:772 JLINK_ReadReg(XPSR)  returns 0x41000000 (0000ms, 15433ms total)
T5C8C 1658:772 JLINK_ClrBPEx(BPHandle = 0x00000006)  returns 0x00 (0000ms, 15433ms total)
T5C8C 1658:772 JLINK_ClrBPEx(BPHandle = 0x00000007)  returns 0x00 (0000ms, 15433ms total)
T5C8C 1658:772 JLINK_ClrBPEx(BPHandle = 0x00000008)  returns 0x00 (0000ms, 15433ms total)
T5C8C 1658:772 JLINK_ClrBPEx(BPHandle = 0x00000009)  returns 0x00 (0000ms, 15433ms total)
T5C8C 1658:772 JLINK_ReadMemU32(0xE000ED30, 0x0001 Items, ...) -- CPU_ReadMem(4 bytes @ 0xE000ED30) - Data: 02 00 00 00  returns 0x01 (0000ms, 15433ms total)
T5C8C 1658:772 JLINK_ReadMemU32(0xE0001028, 0x0001 Items, ...) -- CPU_ReadMem(4 bytes @ 0xE0001028) - Data: 00 00 00 00  returns 0x01 (0000ms, 15433ms total)
T5C8C 1658:772 JLINK_ReadMemU32(0xE0001038, 0x0001 Items, ...) -- CPU_ReadMem(4 bytes @ 0xE0001038) - Data: 00 02 00 00  returns 0x01 (0000ms, 15433ms total)
T5C8C 1658:772 JLINK_ReadMemU32(0xE0001048, 0x0001 Items, ...) -- CPU_ReadMem(4 bytes @ 0xE0001048) - Data: 00 00 00 00  returns 0x01 (0001ms, 15434ms total)
T5C8C 1658:773 JLINK_ReadMemU32(0xE0001058, 0x0001 Items, ...) -- CPU_ReadMem(4 bytes @ 0xE0001058) - Data: 00 00 00 00  returns 0x01 (0000ms, 15434ms total)
T5C8C 1658:773 JLINK_ReadReg(R0)  returns 0x40000000 (0000ms, 15434ms total)
T5C8C 1658:773 JLINK_ReadReg(R1)  returns 0x40000000 (0000ms, 15434ms total)
T5C8C 1658:773 JLINK_ReadReg(R2)  returns 0x00000001 (0000ms, 15434ms total)
T5C8C 1658:773 JLINK_ReadReg(R3)  returns 0x00001000 (0000ms, 15434ms total)
T5C8C 1658:773 JLINK_ReadReg(R4)  returns 0x3F7D4ED8 (0000ms, 15434ms total)
T5C8C 1658:773 JLINK_ReadReg(R5)  returns 0x20004768 (0000ms, 15434ms total)
T5C8C 1658:773 JLINK_ReadReg(R6)  returns 0x00000000 (0000ms, 15434ms total)
T5C8C 1658:773 JLINK_ReadReg(R7)  returns 0x00000000 (0000ms, 15434ms total)
T5C8C 1658:773 JLINK_ReadReg(R8)  returns 0x00000000 (0000ms, 15434ms total)
T5C8C 1658:773 JLINK_ReadReg(R9)  returns 0x00000000 (0000ms, 15434ms total)
T5C8C 1658:773 JLINK_ReadReg(R10)  returns 0x0803EB4C (0000ms, 15434ms total)
T5C8C 1658:773 JLINK_ReadReg(R11)  returns 0x00000000 (0000ms, 15434ms total)
T5C8C 1658:773 JLINK_ReadReg(R12)  returns 0x999999A0 (0000ms, 15434ms total)
T5C8C 1658:773 JLINK_ReadReg(R13 (SP))  returns 0x2000A7A0 (0000ms, 15434ms total)
T5C8C 1658:773 JLINK_ReadReg(R14)  returns 0x0800605D (0000ms, 15434ms total)
T5C8C 1658:773 JLINK_ReadReg(R15 (PC))  returns 0x08011112 (0000ms, 15434ms total)
T5C8C 1658:773 JLINK_ReadReg(XPSR)  returns 0x41000000 (0000ms, 15434ms total)
T5C8C 1658:773 JLINK_ReadReg(MSP)  returns 0x2000A7A0 (0000ms, 15434ms total)
T5C8C 1658:773 JLINK_ReadReg(PSP)  returns 0x00000000 (0000ms, 15434ms total)
T5C8C 1658:773 JLINK_ReadReg(CFBP)  returns 0x04000000 (0000ms, 15434ms total)
T5C8C 1658:773 JLINK_ReadReg(FPSCR)  returns 0x83000012 (0003ms, 15437ms total)
T5C8C 1658:776 JLINK_ReadReg(FPS0)  returns 0x0000006C (0000ms, 15437ms total)
T5C8C 1658:776 JLINK_ReadReg(FPS1)  returns 0x43160000 (0000ms, 15437ms total)
T5C8C 1658:776 JLINK_ReadReg(FPS2)  returns 0x41F8D1D4 (0000ms, 15437ms total)
T5C8C 1658:776 JLINK_ReadReg(FPS3)  returns 0x40000000 (0000ms, 15437ms total)
T5C8C 1658:776 JLINK_ReadReg(FPS4)  returns 0x00000000 (0000ms, 15437ms total)
T5C8C 1658:776 JLINK_ReadReg(FPS5)  returns 0x00000000 (0000ms, 15437ms total)
T5C8C 1658:776 JLINK_ReadReg(FPS6)  returns 0x00000000 (0000ms, 15437ms total)
T5C8C 1658:776 JLINK_ReadReg(FPS7)  returns 0x00000000 (0000ms, 15437ms total)
T5C8C 1658:776 JLINK_ReadReg(FPS8)  returns 0x00000000 (0000ms, 15437ms total)
T5C8C 1658:776 JLINK_ReadReg(FPS9)  returns 0x00000000 (0000ms, 15437ms total)
T5C8C 1658:776 JLINK_ReadReg(FPS10)  returns 0x00000000 (0000ms, 15437ms total)
T5C8C 1658:776 JLINK_ReadReg(FPS11)  returns 0x00000000 (0000ms, 15437ms total)
T5C8C 1658:776 JLINK_ReadReg(FPS12)  returns 0x00000000 (0000ms, 15437ms total)
T5C8C 1658:776 JLINK_ReadReg(FPS13)  returns 0x00000000 (0000ms, 15437ms total)
T5C8C 1658:776 JLINK_ReadReg(FPS14)  returns 0x00000000 (0000ms, 15437ms total)
T5C8C 1658:776 JLINK_ReadReg(FPS15)  returns 0x00000000 (0000ms, 15437ms total)
T5C8C 1658:776 JLINK_ReadReg(FPS16)  returns 0x41F8D1D4 (0000ms, 15437ms total)
T5C8C 1658:776 JLINK_ReadReg(FPS17)  returns 0x4184FC98 (0000ms, 15437ms total)
T5C8C 1658:776 JLINK_ReadReg(FPS18)  returns 0xF999999A (0000ms, 15437ms total)
T5C8C 1658:776 JLINK_ReadReg(FPS19)  returns 0x40309F92 (0000ms, 15437ms total)
T5C8C 1658:777 JLINK_ReadReg(FPS20)  returns 0x00000000 (0000ms, 15437ms total)
T5C8C 1658:777 JLINK_ReadReg(FPS21)  returns 0x3FEFA9DB (0000ms, 15437ms total)
T5C8C 1658:777 JLINK_ReadReg(FPS22)  returns 0x00000000 (0000ms, 15437ms total)
T5C8C 1658:777 JLINK_ReadReg(FPS23)  returns 0x00000000 (0000ms, 15437ms total)
T5C8C 1658:777 JLINK_ReadReg(FPS24)  returns 0x00000000 (0000ms, 15437ms total)
T5C8C 1658:777 JLINK_ReadReg(FPS25)  returns 0x00000000 (0000ms, 15437ms total)
T5C8C 1658:777 JLINK_ReadReg(FPS26)  returns 0x00000000 (0000ms, 15437ms total)
T5C8C 1658:777 JLINK_ReadReg(FPS27)  returns 0x00000000 (0000ms, 15437ms total)
T5C8C 1658:777 JLINK_ReadReg(FPS28)  returns 0x00000000 (0000ms, 15437ms total)
T5C8C 1658:777 JLINK_ReadReg(FPS29)  returns 0x00000000 (0000ms, 15437ms total)
T5C8C 1658:777 JLINK_ReadReg(FPS30)  returns 0x00000000 (0000ms, 15437ms total)
T5C8C 1658:777 JLINK_ReadReg(FPS31)  returns 0x00000000 (0000ms, 15437ms total)
T55B0 1658:777 JLINK_ReadMemEx(0x2000A7BC, 0x0004 Bytes, ..., Flags = 0x02000000) -- CPU_ReadMem(64 bytes @ 0x2000A780) -- Updating C cache (64 bytes @ 0x2000A780) -- Read from C cache (4 bytes @ 0x2000A7BC) - Data: EB EC 00 08  returns 0x04 (0001ms, 15438ms total)
T55B0 1658:778 JLINK_ReadMemEx(0x2000A7B8, 0x0004 Bytes, ..., Flags = 0x02000000) -- Read from C cache (4 bytes @ 0x2000A7B8) - Data: 00 00 00 00  returns 0x04 (0000ms, 15438ms total)
T55B0 1658:778 JLINK_ReadMemEx(0x2000A7C4, 0x0004 Bytes, ..., Flags = 0x02000000) -- CPU_ReadMem(64 bytes @ 0x2000A7C0) -- Updating C cache (64 bytes @ 0x2000A7C0) -- Read from C cache (4 bytes @ 0x2000A7C4) - Data: F1 14 01 08  returns 0x04 (0000ms, 15438ms total)
T55B0 1658:778 JLINK_ReadMemEx(0x2000A7C0, 0x0004 Bytes, ..., Flags = 0x02000000) -- Read from C cache (4 bytes @ 0x2000A7C0) - Data: 00 00 00 00  returns 0x04 (0000ms, 15438ms total)
T55B0 1658:778 JLINK_ReadMemEx(0x20000048, 0x0004 Bytes, ..., Flags = 0x02000000) -- CPU_ReadMem(64 bytes @ 0x20000040) -- Updating C cache (64 bytes @ 0x20000040) -- Read from C cache (4 bytes @ 0x20000048) - Data: A5 02 00 00  returns 0x04 (0001ms, 15439ms total)
T55B0 1658:781 JLINK_ReadMemEx(0x20000018, 0x0004 Bytes, ..., Flags = 0x02000000) -- CPU_ReadMem(64 bytes @ 0x20000000) -- Updating C cache (64 bytes @ 0x20000000) -- Read from C cache (4 bytes @ 0x20000018) - Data: 02 00 00 00  returns 0x04 (0001ms, 15440ms total)
T55B0 1658:783 JLINK_ReadMemEx(0x2000004C, 0x0001 Bytes, ..., Flags = 0x02000000) -- Read from C cache (1 bytes @ 0x2000004C) - Data: D2  returns 0x01 (0000ms, 15440ms total)
T55B0 1658:783 JLINK_ReadMemEx(0x200009F8, 0x0008 Bytes, ..., Flags = 0x02000000) -- CPU_ReadMem(64 bytes @ 0x200009C0) -- Updating C cache (64 bytes @ 0x200009C0) -- Read from C cache (8 bytes @ 0x200009F8) - Data: 00 00 00 00 00 00 00 00  returns 0x08 (0000ms, 15440ms total)
T55B0 1658:783 JLINK_ReadMemEx(0x20000A00, 0x0008 Bytes, ..., Flags = 0x02000000) -- CPU_ReadMem(64 bytes @ 0x20000A00) -- Updating C cache (64 bytes @ 0x20000A00) -- Read from C cache (8 bytes @ 0x20000A00) - Data: 00 00 00 00 00 00 10 40  returns 0x08 (0001ms, 15441ms total)
T55B0 1658:784 JLINK_ReadMemEx(0x20000A08, 0x0008 Bytes, ..., Flags = 0x02000000) -- Read from C cache (8 bytes @ 0x20000A08) - Data: 00 00 00 00 00 70 97 40  returns 0x08 (0000ms, 15441ms total)
T55B0 1658:784 JLINK_ReadMemEx(0x20000A10, 0x0008 Bytes, ..., Flags = 0x02000000) -- Read from C cache (8 bytes @ 0x20000A10) - Data: 66 66 66 66 66 66 EE 3F  returns 0x08 (0000ms, 15441ms total)
