;删除本文件可以恢复默认值。
;这是SSCOM的设置保存文件,您在程序中设置好的串口参数和字符串数据都会自动保存,请最好不要用外部编辑器改动本文件!
;如果文件被修改后程序不能打开,请删除本文件,程序将会自动生成一个新的ini文件.
;靠行首的半角分号是注释符号
;每行都以回车结束

;"="后面的H表示这是个HEX数据串
;"="后面的A表示这是个ASC字符串
;Nx表示第几条定义的字符串(1<x<=N)
N101=1,十六进制数据串1,1000
N1=A,AT+CACFG=?

N102=3,字符串1,1000
N2=A,AT+CASWITCH =?

N103=2,欢迎语,1000
N3=A,ATD13804023611

N104=0,4无注释,1000
N4=A,ATD10086

N105=0,5无注释,1000
N5=A,ATB823674#

N106=0,6无注释,1000
N6=A,ATB1

N107=0,7无注释,1000
N7=A,ATB*00#012#0

N108=0,8无注释,1000
N8=A,

N109=0,,1000
N9=A,AT

N110=0,,1000
N10=A,ATE0

N111=0,,1000
N11=A,AT+CIPMODE=1

N112=0,,1000
N12=A,AT+NETOPEN

N113=0,,1000
N13=A,AT+CPIN?

N114=0,,1000
N14=A,AT+CIPSTART="TCP""15k801n729.iok.la"36732

N115=0,,1000
N15=A,AT+CGATT?

N116=0,,1000
N16=A,AT+CFUN=1

N117=0,,1000
N17=H,AT+CIPSTART="TCP""dtu.heclouds.com"1811

N118=0,,1000
N18=A,*296832#571498701#json*

N119=0,同步,1000
N19=A,*284261#iii#json*

N120=0,20无注释,1000
N20=A,

N121=0,网络附着,1000
N21=A,AT+CREG?

N122=0,信号质量,1000
N22=A,AT+CSQ

N123=0,23无注释,1000
N23=A,

N124=0,检测sim卡,1000
N24=A,AT+CPIN?

N125=0,25无注释,1000
N25=A,AT+CCREG?

N126=0,26无注释,1000
N26=A,AT+CMGF=1

N127=0,27无注释,1000
N27=A,AT+csca="86138007555500"

N128=0,28无注释,1000
N28=A,ATD13804023611

N129=0,29无注释,1000
N29=A,AT+CSQ

N130=0,30无注释,1000
N30=A,ATE1

N131=0,31无注释,1000
N31=A,AT+CFUN=1

N132=0,32无注释,1000
N32=A,AT+CGREG?

N133=0,33无注释,1000
N33=A,AT+CFUN=0

N134=0,34无注释,1000
N34=A,AT+CSCLK=2

N135=0,串口波特率,1000
N35=A,AT+IPR?

N136=0,36无注释,1000
N36=A,AT+CIPSHUT

N137=0,37无注释,1000
N37=A,*284261#abab#json*

N138=0,设置串口波特率,1000
N38=A,AT+IPR=115200

N139=0,39无注释,1000
N39=A,ATE0&W

N140=0,40无注释,1000
N40=A,

N141=0,pm2.5开机,1000
N41=H,AA 01 00 00 00 00 00 66 BB

N142=0,pm2.5自动,1000
N42=H,AA 06 00 00 00 00 01 6b BB

N143=0,43无注释,1000
N43=H,AA 02 00 00 00 00 01 67 BB

N144=0,44无注释,1000
N44=A,

N145=0,45无注释,1000
N45=A,ATD1

N146=0,46无注释,1000
N46=A,ATD0

N147=0,47无注释,1000
N47=A,ATD0

N148=0,48无注释,1000
N48=A,ATD8

N149=0,49无注释,1000
N49=A,ATD16

N150=0,50无注释,1000
N50=A,AT+CGNSPWR=?

N151=0,51无注释,1000
N51=A,AT+CGNSPWR=0

N152=0,52无注释,1000
N52=H,01 03 00 02 00 02 65 cb

N153=0,53无注释,1000
N53=H,01 03 00 02 00 01 25 ca

N154=0,54无注释,1000
N54=H,01 03 00 03 00 01 74 0A

N155=0,55无注释,1000
N55=A,01 06 01 01 00 02 58 37

N156=0,56无注释,1000
N56=A,01 06 01 01 00 01 18 36 

N157=0,自动发送,1000
N57=H,01 07 01 03 00 02 C4 37

N158=0,58无注释,1000
N58=A,01 08 01 02 00 0C FF FF 8F BB 00 01 67 8A FF FE E1 42 F8 27 

N159=0,59无注释,1000
N59=A,01 09 01 04 00 09 00 00 0C E4 00 00 06 0F 06 15 C0

N160=0,校准开始,1000
N60=H,01 0A 01 05 00 02 09 F7 

N161=0,61无注释,1000
N61=H,01 03 06 00 01 FF 9B D2 68 

N162=0,62无注释,1000
N62=A,AT+SGNSCFG="NMEAOUTPORT"2960

N163=0,63无注释,1000
N63=A,AT+SGNSCMD=2100001

N164=0,64无注释,1000
N64=H,aa 00 00 20 00 00 00 00 00 00 00 00 00 00 ca 55

N165=0,65无注释,1000
N65=H,aa 00 01 20 00 00 00 00 00 00 00 00 00 00 cb 55

N166=0,校准数据模拟,1000
N66=H,01 0A 04 01 00 02 48 FA 

N167=0,读取参考样机,1000
N67=H,01 0A 04 02 00 02 B8 FA 

N168=0,68无注释,1000
N68=A,

N169=0,69无注释,1000
N69=A,00 02 1e 00 00 00 00 00 00 00 02 00 00 00 00 00 00 00 03 01 18 11 00 10 F3 00 20 11 F4 00 16 15 F5 00 48 00 F6 00 01 10 97 5D A3 08 

N170=0,70无注释,1000
N70=A,

N171=0,71无注释,1000
N71=A,00 02 1e 00 00 00 00 00 00 00 02 00 00 00 00 00 00 00 03 01 17 10 01 28 1C 3F 90 8F

N172=0,72无注释,1000
N72=A,00 02 1e 00 00 00 00 00 00 00 02 00 00 00 00 00 00 00 03 01 17 F0 06 04 1E 24 90 8F 

N173=0,73无注释,1000
N73=A,

N174=0,74无注释,1000
N74=A,

N175=0,75无注释,1000
N75=A,

N176=0,76无注释,1000
N76=A,

N177=0,写0x4002,1000
N77=A,

N178=0,读0x4001,1000
N78=H,00 02 1e 00 00 00 00 00 00 00 02 00 00 00 00 00 00 00 03 01 30 40 01 04 17 47 90 8F

N179=0,写0x4002,1000
N79=H,00 02 1e 00 00 00 00 00 00 00 02 00 00 00 00 00 00 00 03 01 30 40 02 04 03 00 00 01 74 16 1C EB

N180=0,写0x4003,1000
N80=H,00 02 1e 00 00 00 00 00 00 00 02 00 00 00 00 00 00 00 03 01 30 40 03 04 03 00 00 05 74 04 1C EB 

N181=0,数据帧1,1000
N81=H,00 02 1e 00 00 00 00 00 00 00 02 00 00 00 00 00 00 00 03 01 17 10 01 28 01 81 00 2E 02 81 00 28 01 81 00 2F 02 81 00 29 01 81 00 20 02 81 00 2A 01 81 00 21 02 81 00 3B 01 81 00 22 02 81 00 3C 09 03 7D DC

N182=0,数据帧2,1000
N82=H,00 02 1e 00 00 00 00 00 00 00 02 00 00 00 00 00 00 00 03 01 17 10 01 28 01 81 00 1E 02 81 00 28 01 81 00 1F 02 81 00 29 01 81 00 20 02 81 00 2A 01 81 00 21 02 81 00 2B 01 81 00 22 02 81 00 2C A1 29 7D DC

N183=0,83无注释,1000
N83=A,

N184=0,温湿度,1000
N84=H,00 02 1e 00 00 00 00 00 00 00 02 00 00 00 00 00 00 00 03 01 17 10 01 28 1C 3F 90 8F

N185=0,读电量,1000
N85=H,00 02 1e 00 00 00 00 00 00 00 02 00 00 00 00 00 00 00 03 01 17 F0 06 04 1E 24 90 8F

N186=0,功能码错误,1000
N86=H,00 02 1e 00 00 00 00 00 00 00 02 00 00 00 00 00 00 00 03 01 15 F0 06 04 1F 9C 90 8F 

N187=0,起始地址错误,1000
N87=H,00 02 1e 00 00 00 00 00 00 00 02 00 00 00 00 00 00 00 03 01 17 F0 0F 04 18 74 90 8F

N188=0,数据长度粗偶,1000
N88=H,00 02 1e 00 00 00 00 00 00 00 02 00 00 00 00 00 00 00 03 01 17 F0 06 45 DE 14 90 8F

N189=0,增加终端地址,1000
N89=H,00 02 1e 00 00 00 00 00 00 00 02 00 00 00 00 00 00 00 03 FD 18 46 10 10 F7 00 01 00 F7 00 02 00 F7 00 03 00 F7 00 04 01 3A 36 A3 08 

N190=0,删除终端,1000
N90=H,00 02 1e 00 00 00 00 00 00 00 02 00 00 00 00 00 00 00 03 FD 18 46 11 10 F7 00 01 00 F7 00 02 00 F7 00 03 00 F7 00 04 01 6B CA

N191=0,91无注释,1000
N91=A,AT+CASWITCH =01

N192=0,92无注释,1000
N92=A,AT+COPS?

N193=0,93无注释,1000
N93=A,AT+CNACT=01

N194=0,94无注释,1000
N94=A,AT+CASSLCFG=0"SSL"0

N195=0,95无注释,1000
N95=A,AT+CNACT=00

N196=0,96无注释,1000
N96=A,AT+CAOPEN=00"TCP""dtu.heclouds.com"1811

N197=0,97无注释,1000
N97=A,*296832#838905307#json*

N198=0,98无注释,1000
N98=A,AT+CASEND=023

N199=0,99无注释,1000
N99=A,AT+CACLOSE=0

;发送文件时每256字节延时时间ms
N1051=,1
;打开文件地址和名称
N1052=,                                               
;主面板ASC字符串
N1053=,AT+CGATT?
;主面板HEX数据串
N1054=,AT+SGNSCFG="NMEAOUTPORT"2115200
;主面板发送方式(ASC or HEX)
N1055=,H
;主面板字符串发送间隔时间ms
N1056=,10
;主面板字符串发送新行
N1057=,Y
;多条字符串发送间隔时间ms
N1058=,1
;接收窗口是否HEX显示方式
N1059=,N
;校验方式,0=None，1=modbusCRC16，2=ADD，3=XOR
N1060=,0
;保存DTR:
N1061=,Y
;保存RTS:
N1062=,N
;程序启动时是否打开串口
N1063=,N
;是否分包显示
N1064=,Y
;分包超时时间ms
N1065=,20
;接收窗背景颜色
N1066=,16777215
;显示缓冲上限,200K,500K,1M,2M,5M,10M,20M
N1067=,1000000
;远程IP地址
N1068=,120.76.28.211
;远程端口
N1069=,80
;本地端口
N1070=,777
;选择回车后发送行(带回显)
N1071=,N
;选择按键立即发送键值
N1072=,Y
;选择回显
N1073=,N
;第几字节至末尾加校验
N1074=,1
;至末尾倒数第几字节加校验,存第几个项目
N1075=,0
;终端仿真输入回车后是否自动加换行
N1076=,N
;当前串口号Port=COMX,网络模式):1=TCPCLIENT,2=TCPSERVER,3=UDP
N1080=,
;波特率Band rate
N1081=,115200
;保存窗口宽度
N1082=,792
;保存窗口高度
N1083=,600
;保存窗口left
N1084=,250
;保存窗口top
N1085=,180
;分割线位置(右侧装多条自定义字符串的容器宽度)
N1086=,897
;多条发送按钮的宽度
N1087=,120
;保存窗口字体名称
N1088=,宋体
;保存窗口字体大小
N1089=,9
;保存窗口字体颜色
N1090=,0
;C:Chinese汉语,E:English
N1100=,汉语
;end